! Created Monday, September 20, 2021 4:52:14 PM
# GHz S DB R 50
! 2 Port Network Data from SP1.SP block
! freq  dbS11	angS11	dbS21	angS21	dbS12	angS12	dbS22	angS22	
!
3	-0.0700917802953104	-172.647633347924	-61.5942285771	-84.9473052784385	-61.5942285771316	-84.9473052784385	-0.0700917802953104	-172.647633347924
3.005	-0.0707543253664017	-173.077538613837	-61.2332355993513	-85.4044977981177	-61.2332355993197	-85.4044977981177	-0.0707543253664017	-173.077538613837
3.01	-0.071438422025914	-173.511356329326	-60.8683140592193	-85.8662035011397	-60.8683140592035	-85.8662035011657	-0.071438422025914	-173.511356329326
3.015	-0.072145085883081	-173.949222067098	-60.499377262571	-86.3325784331115	-60.499377262571	-86.3325784330854	-0.072145085883081	-173.949222067098
3.02	-0.072875393760072	-174.391277787011	-60.1263355582449	-86.8037859831083	-60.1263355582607	-86.8037859831604	-0.072875393760072	-174.391277787011
3.025	-0.0736304882306636	-174.837672222231	-59.7490962001736	-87.2799973270524	-59.7490962001656	-87.2799973270263	-0.0736304882306636	-174.837672222231
3.03	-0.0744115825615708	-175.288561294079	-59.3675632012964	-87.7613919039954	-59.3675632013043	-87.7613919040345	-0.0744115825615708	-175.288561294079
3.035	-0.075219966098241	-175.744108558134	-58.9816371786678	-88.2481579282179	-58.9816371786599	-88.2481579282309	-0.075219966098241	-175.744108558134
3.04	-0.0760570101420247	-176.204485684384	-58.5912151891094	-88.7404929403636	-58.5912151891133	-88.7404929403767	-0.0760570101420247	-176.204485684384
3.045	-0.0769241743713462	-176.669872974545	-58.1961905547011	-89.2386044011606	-58.1961905546932	-89.2386044011606	-0.0769241743713472	-176.669872974545
3.05	-0.077823013865963	-177.140459919978	-57.7964526773442	-89.7427103316615	-57.7964526773442	-89.742710331642	-0.077823013865963	-177.140459919978
3.055	-0.0787551868008965	-177.616445804017	-57.3918868415571	-90.253040004359	-57.391886841558	-90.2530400043655	-0.0787551868008965	-177.616445804017
3.06	-0.0797224628849974	-178.098040352926	-56.9823740045933	-90.7698346900088	-56.9823740045933	-90.7698346900088	-0.0797224628849974	-178.098040352926
3.065	-0.0807267326289561	-178.585464440202	-56.5677905728831	-91.2933484655311	-56.5677905728826	-91.2933484655262	-0.0807267326289561	-178.585464440202
3.07	-0.0817700175386803	-179.07895084943	-56.1480081637103	-91.823849088965	-56.1480081637103	-91.8238490889634	-0.0817700175386803	-179.07895084943
3.075	-0.08285448134274	-179.578745101541	-55.7228933509307	-92.361618948137	-55.7228933509307	-92.361618948137	-0.082854481342742	-179.578745101541
3.08	-0.0839824423775969	179.91489364704	-55.2923073934275	-92.906956090477	-55.2923073934276	-92.9069560904771	-0.0839824423775969	179.91489364704
3.085	-0.0851563872711621	179.401691628047	-54.856105944869	-93.4601753422956	-54.8561059448691	-93.4601753422952	-0.0851563872711621	179.401691628047
3.09	-0.0863789860853969	178.881359398706	-54.4141387431959	-94.0216095268329	-54.4141387431961	-94.0216095268337	-0.0863789860853969	178.881359398706
3.095	-0.0876531091014571	178.353590683557	-53.966249278108	-94.5916107915228	-53.966249278108	-94.591610791522	-0.0876531091014571	178.353590683557
3.1	-0.0889818454578535	177.818061110502	-53.5122744346449	-95.1705520562184	-53.5122744346454	-95.1705520562167	-0.0889818454578535	177.818061110502
3.105	-0.0903685238834256	177.274426829471	-53.0520441107626	-95.7588285955943	-53.0520441107616	-95.7588285955959	-0.0903685238834256	177.274426829471
3.11	-0.0918167358035375	176.722323000616	-52.5853808065859	-96.3568597706483	-52.5853808065859	-96.3568597706483	-0.0918167358035375	176.722323000616
3.115	-0.0933303611410791	176.16136213725	-52.1120991827787	-96.9650909261607	-52.1120991827797	-96.9650909261591	-0.0933303611410791	176.16136213725
3.12	-0.0949135971845513	175.591132286748	-51.6320055851963	-97.583995473218	-51.6320055851963	-97.5839954732131	-0.0949135971845513	175.591132286748
3.125	-0.0965709909553564	175.011195030361	-51.14489753268	-98.214077178482	-51.14489753268	-98.214077178482	-0.0965709909553564	175.011195030361
3.13	-0.09830747557758	174.421083280291	-50.6505631645091	-98.8558726848763	-50.6505631645072	-98.8558726848812	-0.09830747557758	174.421083280291
3.135	-0.100128411237807	173.820298849263	-50.1487806436395	-99.5099542918191	-50.1487806436395	-99.5099542918158	-0.100128411237805	173.820298849263
3.14	-0.10203963142335	173.208309764354	-49.6393175114198	-100.176933027151	-49.6393175114179	-100.176933027152	-0.10203963142335	173.208309764354
3.145	-0.104047495247807	172.58454729264	-49.1219299889862	-100.857462047592	-49.1219299889882	-100.857462047592	-0.104047495247807	172.58454729264
3.15	-0.106158946817771	171.948402641439	-48.5963622199797	-101.552240410035	-48.5963622199797	-101.552240410037	-0.106158946817769	171.948402641439
3.155	-0.108381582769319	171.299223290207	-48.0623454486035	-102.262017262394	-48.0623454485996	-102.262017262396	-0.108381582769319	171.299223290207
3.16	-0.11072372931476	170.636308904533	-47.5195971263248	-102.987596510254	-47.5195971263248	-102.987596510255	-0.11072372931476	170.636308904533
3.165	-0.113194530397444	169.958906774758	-46.9678199397223	-103.729842024481	-46.9678199397204	-103.729842024482	-0.113194530397444	169.958906774758
3.17	-0.115804048867202	169.26620671247	-46.4067007510667	-104.489683465416	-46.4067007510667	-104.489683465415	-0.115804048867202	169.26620671247
3.175	-0.118563382975061	168.557335327055	-45.8359094421856	-105.268122811791	-45.8359094421856	-105.268122811792	-0.118563382975061	168.557335327055
3.18	-0.121484800961617	167.8313495913	-45.2550976509901	-106.066241697324	-45.255097650994	-106.066241697324	-0.121484800961617	167.8313495913
3.185	-0.124581897103433	167.087229589297	-44.6638973887045	-106.885209675707	-44.6638973886986	-106.885209675707	-0.124581897103433	167.087229589297
3.19	-0.127869773316012	166.323870320954	-44.0619195243293	-107.726293555985	-44.0619195243312	-107.726293555983	-0.127869773316012	166.323870320954
3.195	-0.131365251331479	165.540072414629	-43.4487521211507	-108.590867975969	-43.4487521211487	-108.59086797597	-0.131365251331479	165.540072414629
3.2	-0.135087121626616	164.734531571769	-42.823958608171	-109.480427412299	-42.823958608165	-109.480427412299	-0.135087121626616	164.734531571769
3.205	-0.139056436742791	163.90582653392	-42.1870757671399	-110.396599863419	-42.1870757671399	-110.396599863419	-0.139056436742789	163.90582653392
3.21	-0.14329685850679	163.052405321501	-41.5376115134073	-111.341162487604	-41.5376115134093	-111.341162487605	-0.143296858506789	163.052405321501
3.215	-0.14783507105596	162.172569443524	-40.8750424460591	-112.316059534379	-40.8750424460611	-112.31605953438	-0.14783507105596	162.172569443524
3.22	-0.152701274660695	161.264455715589	-40.1988111397454	-113.323422976846	-40.1988111397454	-113.323422976847	-0.152701274660695	161.264455715589
3.225	-0.157929779352752	160.326015246907	-39.5083231472573	-114.365596337947	-39.5083231472583	-114.365596337948	-0.157929779352752	160.326015246907
3.23	-0.163559722622531	159.354989061826	-38.8029436783027	-115.445162309991	-38.8029436783037	-115.44516230999	-0.163559722622531	159.354989061826
3.235	-0.169635942377688	158.348879702177	-38.0819939161382	-116.564974899555	-38.0819939161392	-116.564974899555	-0.169635942377688	158.348879702177
3.24	-0.176210045563914	157.304918006962	-37.3447469299118	-117.728196996636	-37.3447469299098	-117.728196996636	-0.176210045563914	157.304918006962
3.245	-0.183341725186129	156.220024076478	-36.5904231370095	-118.938344477531	-36.5904231370095	-118.938344477531	-0.183341725186133	156.220024076478
3.25	-0.19110039513874	155.09076118718	-35.8181852668766	-120.199338218376	-35.8181852668776	-120.199338218377	-0.191100395138742	155.09076118718
3.255	-0.199567234979382	153.913281115689	-35.0271327764473	-121.515565737931	-35.0271327764483	-121.515565737932	-0.199567234979381	153.913281115689
3.26	-0.20883776804787	152.683258934324	-34.2162956687311	-122.891954627148	-34.2162956687301	-122.891954627148	-0.208837768047871	152.683258934324
3.265	-0.219025139766587	151.395814828352	-33.3846276722654	-124.334060490343	-33.3846276722659	-124.334060490343	-0.219025139766587	151.395814828352
3.27	-0.230264323900776	150.045419818731	-32.5309987532556	-125.84817286031	-32.5309987532551	-125.84817286031	-0.230264323900776	150.045419818731
3.275	-0.242717570957498	148.625781402478	-31.6541869593735	-127.441443513887	-31.654186959374	-127.441443513887	-0.242717570957498	148.625781402478
3.28	-0.256581536721792	147.129703976662	-30.7528696425153	-129.122042881909	-30.7528696425148	-129.12204288191	-0.256581536721792	147.129703976662
3.285	-0.272096708364277	145.548917398385	-29.8256141903244	-130.899351921594	-29.8256141903239	-130.899351921594	-0.27209670836428	145.548917398385
3.29	-0.289560008596977	143.873865026951	-28.8708685338538	-132.784199039614	-28.870868533853	-132.784199039614	-0.289560008596977	143.873865026951
3.295	-0.309341848541215	142.093439930611	-27.8869519250995	-134.789154606395	-27.8869519250992	-134.789154606395	-0.309341848541215	142.093439930611
3.3	-0.331909485772049	140.194654405259	-26.8720468480318	-136.928899529742	-26.8720468480318	-136.928899529742	-0.331909485772049	140.194654405259
3.305	-0.357859434240559	138.162223282535	-25.824193529618	-139.22068956596	-25.8241935296177	-139.22068956596	-0.357859434240559	138.162223282535
3.31	-0.387963042088916	135.978035404211	-24.7412895000863	-141.684943899261	-24.7412895000863	-141.684943899261	-0.387963042088917	135.978035404211
3.315	-0.423231484343395	133.620479847762	-23.6210982566541	-144.345995372351	-23.6210982566537	-144.345995372351	-0.423231484343395	133.620479847762
3.32	-0.465009769900599	131.063583969289	-22.4612737127846	-147.233050784769	-22.4612737127848	-147.233050784769	-0.465009769900599	131.063583969289
3.325	-0.515114685241624	128.275909742151	-21.2594114264415	-150.381422460028	-21.2594114264416	-150.381422460028	-0.515114685241625	128.275909742151
3.33	-0.57604010393651	125.219145656349	-20.013144674455	-153.834104731969	-20.013144674455	-153.834104731969	-0.576040103936509	125.219145656349
3.335	-0.651266707547531	121.846330291612	-18.7203149944074	-157.643775002549	-18.7203149944074	-157.643775002549	-0.651266707547532	121.846330291612
3.34	-0.745734813461134	118.099666868018	-17.3792654456154	-161.875283238271	-17.3792654456154	-161.875283238272	-0.745734813461134	118.099666868018
3.345	-0.866572685628321	113.907972699678	-15.9893340142403	-166.608620693826	-15.9893340142403	-166.608620693826	-0.866572685628323	113.907972699678
3.35	-1.02422248322288	109.184033438699	-14.5516674964026	-171.94215109118	-14.5516674964026	-171.94215109118	-1.02422248322289	109.184033438699
3.355	-1.23417134459049	103.822659934937	-13.0705308139932	-177.995389614626	-13.0705308139932	-177.995389614626	-1.23417134459049	103.822659934937
3.36	-1.51955600493372	97.7013621435746	-11.5553304398827	175.090451017061	-11.5553304398827	175.090451017061	-1.51955600493372	97.7013621435746
3.365	-1.91488881720197	90.6876484514301	-10.0235217199731	167.157934621112	-10.0235217199731	167.157934621112	-1.91488881720197	90.6876484514301
3.37	-2.47084899908875	82.660131820465	-8.50421738439722	158.051699332975	-8.50421738439721	158.051699332975	-2.47084899908875	82.660131820465
3.375	-3.25913646677365	73.553243582976	-7.04128195139122	147.658710541473	-7.04128195139122	147.658710541473	-3.25913646677365	73.553243582976
3.38	-4.37462705395425	63.4312163047249	-5.69277764865281	135.974894783894	-5.69277764865281	135.974894783894	-4.37462705395425	63.431216304725
3.385	-5.93086576777991	52.5756916882868	-4.52210837578185	123.180121499194	-4.52210837578184	123.180121499194	-5.93086576777991	52.5756916882868
3.39	-8.04861174952429	41.5364643576858	-3.57921158614735	109.66617563769	-3.57921158614735	109.66617563769	-8.04861174952429	41.5364643576858
3.395	-10.8487789967359	31.0958455553423	-2.88019698124049	95.9576859828738	-2.88019698124049	95.9576859828738	-10.8487789967359	31.0958455553424
3.4	-14.4726853674841	22.1905371153175	-2.40111075853853	82.545631276366	-2.40111075853853	82.545631276366	-14.4726853674842	22.1905371153173
3.405	-19.1571723337977	15.9636656396685	-2.09157406748099	69.7456368507417	-2.09157406748099	69.7456368507417	-19.1571723337977	15.9636656396684
3.41	-25.4464110771401	14.2064048337831	-1.8964847511687	57.6661135752338	-1.89648475116871	57.6661135752338	-25.4464110771402	14.2064048337827
3.415	-35.2946366593835	21.2640780171796	-1.77134892399846	46.265686515548	-1.77134892399846	46.265686515548	-35.2946366593834	21.2640780171797
3.42	-46.9710722645186	-170.714909788125	-1.687224889365	35.4327137772963	-1.687224889365	35.4327137772963	-46.9710722645181	-170.714909788124
3.425	-33.6494643393673	-138.712210672605	-1.62889800840224	25.0451662335794	-1.62889800840224	25.0451662335794	-33.6494643393673	-138.712210672605
3.43	-27.4926446410108	-124.852020769654	-1.59060369453255	15.0031699515027	-1.59060369453255	15.0031699515026	-27.4926446410107	-124.852020769654
3.435	-22.8816934337963	-119.717251728068	-1.57169850731258	5.24090485750207	-1.57169850731258	5.24090485750207	-22.8816934337962	-119.717251728068
3.44	-19.3371729155564	-119.916758787386	-1.57317651934793	-4.27428102930673	-1.57317651934792	-4.27428102930673	-19.3371729155564	-119.916758787386
3.445	-16.5987770043467	-123.00103876814	-1.59526977049662	-13.5499009259778	-1.59526977049662	-13.5499009259778	-16.5987770043467	-123.00103876814
3.45	-14.4723704307842	-127.632022204998	-1.63614261052814	-22.5795323364376	-1.63614261052813	-22.5795323364376	-14.4723704307842	-127.632022204998
3.455	-12.8205962644967	-133.089424566908	-1.69156271681785	-31.3541152099598	-1.69156271681785	-31.3541152099598	-12.8205962644967	-133.089424566908
3.46	-11.5469722988443	-138.97016887153	-1.75531210092805	-39.8710747347651	-1.75531210092805	-39.8710747347651	-11.5469722988443	-138.97016887153
3.465	-10.5830797269979	-145.042523825102	-1.82002514925753	-48.1400663443977	-1.82002514925753	-48.1400663443977	-10.5830797269979	-145.042523825101
3.47	-9.88046597596354	-151.17399050368	-1.87815115513227	-56.1852685716221	-1.87815115513228	-56.1852685716221	-9.88046597596354	-151.17399050368
3.475	-9.40595224279407	-157.292102909236	-1.92282674893355	-64.0449532160626	-1.92282674893355	-64.0449532160626	-9.40595224279407	-157.292102909236
3.48	-9.1391229650048	-163.360062174121	-1.94855924297973	-71.7693464347182	-1.94855924297973	-71.7693464347182	-9.1391229650048	-163.360062174121
3.485	-9.0713060432985	-169.358836673649	-1.95171593037664	-79.417639955501	-1.95171593037664	-79.417639955501	-9.0713060432985	-169.358836673649
3.49	-9.20580664810031	-175.270864853958	-1.93086336398296	-87.0546379348021	-1.93086336398295	-87.0546379348021	-9.20580664810031	-175.270864853958
3.495	-9.5595393908565	178.939213900707	-1.88700515357293	-94.7471328891893	-1.88700515357292	-94.7471328891893	-9.5595393908565	178.939213900707
3.5	-10.1666508644016	173.354012792984	-1.8237377699611	-102.559817413756	-1.8237377699611	-102.559817413756	-10.1666508644016	173.354012792984
3.505	-11.0854680456701	168.158794835176	-1.74729273897984	-110.550429461231	-1.74729273897985	-110.550429461231	-11.0854680456701	168.158794835176
3.51	-12.4114613298302	163.765130530448	-1.66637244320211	-118.763965702588	-1.6663724432021	-118.763965702588	-12.4114613298302	163.765130530448
3.515	-14.3001309327784	161.138315291545	-1.59163576379483	-127.226253598906	-1.59163576379483	-127.226253598906	-14.3001309327784	161.138315291545
3.52	-16.98736371482	162.839166885863	-1.53468592298282	-135.937958334115	-1.53468592298282	-135.937958334115	-16.98736371482	162.839166885863
3.525	-20.5261352967309	176.589893731208	-1.50650463602752	-144.87100838876	-1.50650463602752	-144.87100838876	-20.5261352967308	176.589893731209
3.53	-22.2027764003733	-145.998453596493	-1.51548834398373	-153.969903083661	-1.51548834398373	-153.969903083661	-22.2027764003733	-145.998453596493
3.535	-18.9958978843361	-116.763837991061	-1.56551392819563	-163.159695780559	-1.56551392819562	-163.159695780559	-18.9958978843361	-116.763837991061
3.54	-15.5212583702145	-108.996528397715	-1.65462762369782	-172.360378001208	-1.65462762369782	-172.360378001208	-15.5212583702145	-108.996528397715
3.545	-12.9968561523056	-109.642398295508	-1.77484136568366	178.495192421124	-1.77484136568367	178.495192421124	-12.9968561523056	-109.642398295508
3.55	-11.2201633896008	-113.446640051317	-1.91314128065872	169.444058484609	-1.91314128065872	169.444058484609	-11.2201633896008	-113.446640051317
3.555	-9.99560018958567	-118.583224565605	-2.0534022373181	160.479957613113	-2.05340223731809	160.479957613113	-9.99560018958567	-118.583224565605
3.56	-9.21017243598446	-124.300651553983	-2.1787467639514	151.544917272679	-2.1787467639514	151.544917272679	-9.21017243598446	-124.300651553983
3.565	-8.81305757730768	-130.231159175717	-2.2740887443979	142.52403043187	-2.2740887443979	142.52403043187	-8.81305757730768	-130.231159175717
3.57	-8.80780599803762	-136.119075418334	-2.32906238038803	133.241113174211	-2.32906238038803	133.241113174211	-8.80780599803761	-136.119075418334
3.575	-9.26231984536282	-141.60110156516	-2.34210283755246	123.454946349827	-2.34210283755246	123.454946349827	-9.26231984536282	-141.60110156516
3.58	-10.340072352374	-145.76480484547	-2.32694116305001	112.861943616784	-2.32694116305	112.861943616784	-10.340072352374	-145.76480484547
3.585	-12.3338141045021	-145.703164472658	-2.3226014316088	101.12439746181	-2.3226014316088	101.12439746181	-12.3338141045021	-145.703164472658
3.59	-15.2174239381733	-131.393085906111	-2.40509229135957	87.9640763831379	-2.40509229135957	87.9640763831379	-15.2174239381733	-131.393085906111
3.595	-15.0022997243599	-94.1438547925484	-2.68978285019324	73.3625683497339	-2.68978285019324	73.3625683497339	-15.0022997243599	-94.1438547925484
3.6	-10.5700411557689	-76.7212723924706	-3.30191467235027	57.8080019532971	-3.30191467235027	57.8080019532971	-10.5700411557689	-76.7212723924706
3.605	-6.97388805821868	-78.6640031284947	-4.30950887608397	42.3108915025444	-4.30950887608397	42.3108915025443	-6.97388805821867	-78.6640031284946
3.61	-4.64849746596955	-86.2591550429171	-5.67380782135018	27.9747895811197	-5.67380782135018	27.9747895811197	-4.64849746596955	-86.2591550429171
3.615	-3.19059539493858	-94.7588849396582	-7.27752863660866	15.4749158282647	-7.27752863660866	15.4749158282647	-3.19059539493858	-94.7588849396582
3.62	-2.27481379925297	-102.630780303372	-8.99482548561136	4.93909052742062	-8.99482548561137	4.93909052742065	-2.27481379925297	-102.630780303372
3.625	-1.68854038289517	-109.49283758141	-10.7336578643055	-3.8396321494014	-10.7336578643055	-3.83963214940138	-1.68854038289517	-109.49283758141
3.63	-1.3022527432223	-115.371622656496	-12.4402261680907	-11.1745804623442	-12.4402261680907	-11.1745804623443	-1.3022527432223	-115.371622656496
3.635	-1.03924646884652	-120.410337739318	-14.0879985751606	-17.3647314944226	-14.0879985751606	-17.3647314944226	-1.03924646884652	-120.410337739318
3.64	-0.854150016084301	-124.762816923015	-15.6664827359511	-22.6557902714556	-15.6664827359512	-22.6557902714555	-0.854150016084299	-124.762816923015
3.645	-0.719724892361562	-128.561720016743	-17.1736843357761	-27.2381607493359	-17.1736843357761	-27.2381607493359	-0.719724892361562	-128.561720016743
3.65	-0.61923992032384	-131.913410956291	-18.6117641565437	-31.2563858371052	-18.6117641565437	-31.2563858371052	-0.61923992032384	-131.913410956291
3.655	-0.542145381807603	-134.901032571384	-19.9847102325617	-34.8199119135884	-19.9847102325617	-34.8199119135886	-0.542145381807601	-134.901032571384
3.66	-0.481608294219665	-137.589221343706	-21.29714191398	-38.0121255441849	-21.2971419139801	-38.0121255441848	-0.481608294219664	-137.589221343706
