! Created Friday, October 1, 2021 4:01:06 PM
# GHz S DB R 50
! 2 Port Network Data from SP1.SP block
! freq  dbS11	angS11	dbS21	angS21	dbS12	angS12	dbS22	angS22	
!
3	-0.0704698306210193	-172.678727495738	-61.5392146811499	-84.9789376404722	-61.5392146810551	-84.9789376404201	-0.0704698306210193	-172.678727495738
3.005	-0.0711371816736398	-173.1105730941	-61.1782073642133	-85.4380616933503	-61.1782073642765	-85.4380616934024	-0.0711371816736398	-173.1105730941
3.01	-0.0718262223585721	-173.546357771732	-60.8132733590028	-85.9017251754234	-60.8132733590186	-85.9017251754755	-0.0718262223585721	-173.546357771732
3.015	-0.0725379742181833	-173.986217879808	-60.4443260394466	-86.3700848868275	-60.4443260394466	-86.3700848868015	-0.0725379742181833	-173.986217879808
3.02	-0.0732735203265767	-174.43029619005	-60.0712758263675	-86.8433050028127	-60.0712758263675	-86.8433050028127	-0.0732735203265767	-174.43029619005
3.025	-0.0740340098491449	-174.878742282667	-59.69403004988	-87.3215575187546	-59.6940300498564	-87.3215575187286	-0.0740340098491449	-174.878742282667
3.03	-0.0748206630062284	-175.331712963093	-59.3124928036024	-87.8050227281695	-59.3124928036103	-87.8050227281565	-0.0748206630062284	-175.331712963093
3.035	-0.0756347764831115	-175.789372710111	-58.9265647900864	-88.2938897366544	-58.9265647900943	-88.2938897366804	-0.0756347764831115	-175.789372710111
3.04	-0.0764777293332976	-176.251894158152	-58.5361431568198	-88.7883570149762	-58.5361431568237	-88.7883570149762	-0.0764777293332976	-176.251894158152
3.045	-0.0773509894278152	-176.719458616909	-58.1411213220976	-89.2886329948722	-58.1411213220957	-89.2886329948592	-0.0773509894278152	-176.719458616909
3.05	-0.0782561205099811	-177.1922566317	-57.7413887899977	-89.7949367115007	-57.7413887899977	-89.7949367115007	-0.0782561205099811	-177.1922566317
3.055	-0.0791947899222623	-177.670488588406	-57.3368309536258	-90.3074984969094	-57.3368309536258	-90.3074984969127	-0.0791947899222623	-177.670488588406
3.06	-0.0801687770806033	-178.154365367228	-56.9273288857223	-90.8265607293632	-56.9273288857223	-90.8265607293697	-0.0801687770806033	-178.154365367228
3.065	-0.0811799827811321	-178.644109049968	-56.5127591156364	-91.3523786439125	-56.5127591156362	-91.3523786439109	-0.0811799827811321	-178.644109049968
3.07	-0.082230439435624	-179.139953686082	-56.092993391585	-91.8852212101918	-56.0929933915848	-91.8852212101918	-0.082230439435624	-179.139953686082
3.075	-0.0833223223446256	-179.642146123354	-55.667898427006	-92.4253720841181	-55.667898427006	-92.4253720841173	-0.0833223223446256	-179.642146123354
3.08	-0.0844579621324035	179.84905309028	-55.2373356297085	-92.9731306409402	-55.2373356297085	-92.9731306409402	-0.0844579621324016	179.84905309028
3.085	-0.0856398584846697	179.33336872647	-54.8011608123914	-93.5288130979655	-54.8011608123915	-93.5288130979655	-0.0856398584846697	179.33336872647
3.09	-0.0868706953502467	178.810509809554	-54.3592238829648	-94.092753736291	-54.3592238829644	-94.0927537362926	-0.0868706953502467	178.810509809554
3.095	-0.0881533577907125	178.28016845386	-53.9113685129523	-94.6653062320014	-53.9113685129521	-94.6653062320022	-0.0881533577907125	178.28016845386
3.1	-0.0894909506890547	177.742018594884	-53.457431782079	-95.2468451085948	-53.457431782079	-95.2468451085964	-0.0894909506890547	177.742018594884
3.105	-0.0908868195598787	177.195714602723	-52.9972437969547	-95.8377673238761	-52.9972437969552	-95.8377673238745	-0.0908868195598787	177.195714602723
3.11	-0.0923445737402175	176.640889764637	-52.5306272815492	-96.4384940062582	-52.5306272815492	-96.4384940062549	-0.0923445737402175	176.640889764637
3.115	-0.0938681122835145	176.077154621922	-52.0573971369101	-97.0494723573538	-52.0573971369111	-97.0494723573538	-0.0938681122835145	176.077154621922
3.12	-0.095461652929881	175.50409514427	-51.5773599673056	-97.6711777399884	-51.5773599673076	-97.6711777399851	-0.095461652929881	175.50409514427
3.125	-0.0971297645859703	174.921270722538	-51.0903135696695	-98.3041159733397	-51.0903135696665	-98.304115973343	-0.0971297645859703	174.921270722538
3.13	-0.0988774038189681	174.328211958206	-50.5960463828841	-98.9488258599042	-50.5960463828841	-98.9488258599034	-0.0988774038189681	174.328211958206
3.135	-0.100709955953675	173.724418224732	-50.0943368930509	-99.6058819724454	-50.0943368930549	-99.6058819724462	-0.100709955953675	173.724418224732
3.14	-0.102633281462739	173.109354972498	-49.5849529904703	-100.275897733104	-49.5849529904723	-100.275897733104	-0.102633281462739	173.109354972498
3.145	-0.104653768460826	172.482450744849	-49.0676512735576	-100.959528821532	-49.0676512735596	-100.959528821532	-0.104653768460826	172.482450744849
3.15	-0.106778392258794	171.843093867937	-48.5421762943774	-101.657476954388	-48.5421762943734	-101.65747695439	-0.106778392258796	171.843093867937
3.155	-0.109014783109037	171.190628771366	-48.0082597398516	-102.370494084938	-48.0082597398496	-102.370494084941	-0.109014783109037	171.190628771366
3.16	-0.111371303485365	170.524351889991	-47.4656195419948	-103.099387079051	-47.4656195419948	-103.099387079055	-0.111371303485365	170.524351889991
3.165	-0.113857136498817	169.843507089329	-46.9139589097307	-103.845022932747	-46.9139589097287	-103.84502293275	-0.113857136498817	169.843507089329
3.17	-0.116482387365926	169.147280547733	-46.3529652739409	-104.608334606969	-46.3529652739429	-104.608334606967	-0.116482387365926	169.147280547733
3.175	-0.119258200232799	168.434795017416	-45.7823091363719	-105.390327567715	-45.7823091363759	-105.390327567712	-0.119258200232799	168.434795017416
3.18	-0.122196893135089	167.705103373233	-45.2016428118635	-106.192087134488	-45.2016428118615	-106.192087134488	-0.122196893135087	167.705103373233
3.185	-0.125312114464828	166.957181342341	-44.6105990520423	-107.014786757782	-44.6105990520463	-107.014786757781	-0.125312114464828	166.957181342341
3.19	-0.128619025050501	166.189919288955	-44.0087895371313	-107.859697367557	-44.0087895371293	-107.859697367558	-0.128619025050501	166.189919288955
3.195	-0.1321345108779	165.402112905601	-43.3958032208303	-108.728197960284	-43.3958032208342	-108.728197960284	-0.1321345108779	165.402112905601
3.2	-0.135877432638688	164.592452634639	-42.7712045113104	-109.621787623084	-42.7712045113065	-109.621787623086	-0.135877432638688	164.592452634639
3.205	-0.139868919761644	163.759511610344	-42.1345312692051	-110.542099231057	-42.1345312692032	-110.54209923106	-0.139868919761644	163.759511610344
3.21	-0.1441327184519	162.901731870839	-41.4852926010574	-111.490915099718	-41.4852926010574	-111.490915099718	-0.1441327184519	162.901731870839
3.215	-0.148695605661129	162.017408539054	-40.822966423976	-112.470184930537	-40.822966423976	-112.470184930537	-0.148695605661129	162.017408539054
3.22	-0.153587884005629	161.104671610027	-40.1469967742561	-113.482046456635	-40.1469967742581	-113.482046456636	-0.153587884005629	161.104671610027
3.225	-0.158843976669376	160.161464905413	-39.4567908294458	-114.528849280977	-39.4567908294448	-114.528849280978	-0.158843976669376	160.161464905413
3.23	-0.164503146590272	159.185521660893	-38.7517156098175	-115.613182505483	-38.7517156098165	-115.613182505482	-0.164503146590274	159.185521660893
3.235	-0.170610371164036	158.174336093198	-38.0310943215326	-116.737906881857	-38.0310943215306	-116.737906881856	-0.170610371164036	158.174336093198
3.24	-0.177217412917507	157.125130143954	-37.2942023001168	-117.906192381223	-37.2942023001178	-117.906192381223	-0.177217412917507	157.125130143954
3.245	-0.184384138950302	156.034814408501	-36.5402625094892	-119.121562289555	-36.5402625094902	-119.121562289556	-0.184384138950302	156.034814408501
3.25	-0.192180158625141	154.899942017652	-35.7684405491824	-120.387945202388	-35.7684405491814	-120.387945202388	-0.19218015862514	154.899942017652
3.255	-0.20068687172369	153.716653933266	-34.9778391213418	-121.70973663259	-34.9778391213408	-121.70973663259	-0.200686871723692	153.716653933266
3.26	-0.210000050560711	152.480613723756	-34.1674919108646	-123.09187238202	-34.1674919108636	-123.091872382019	-0.21000005056071	152.480613723755
3.265	-0.220233122985916	151.186929375246	-33.3363568386571	-124.539916392485	-33.3363568386566	-124.539916392484	-0.220233122985916	151.186929375246
3.27	-0.231521384132534	149.830059030369	-32.4833086626793	-126.06016652504	-32.4833086626798	-126.060166525039	-0.231521384132535	149.830059030369
3.275	-0.244027451127617	148.403696678957	-31.6071309293368	-127.659782675276	-31.6071309293368	-127.659782675276	-0.244027451127617	148.403696678957
3.28	-0.257948398693968	146.900632684693	-30.7065073270368	-129.346942891536	-30.7065073270368	-129.346942891535	-0.257948398693967	146.900632684693
3.285	-0.273525192786556	145.312582526899	-29.7800125773978	-131.131034825219	-29.7800125773983	-131.131034825218	-0.273525192786554	145.312582526899
3.29	-0.291055302005067	143.629975143819	-28.8261031386037	-133.022892044905	-28.8261031386045	-133.022892044906	-0.291055302005066	143.629975143819
3.295	-0.310909755851672	141.841689620156	-27.8431082234551	-135.035087672022	-27.8431082234554	-135.035087672022	-0.310909755851672	141.841689620156
3.3	-0.333556503067227	139.9347254574	-26.8292220064671	-137.182301683728	-26.8292220064669	-137.182301683728	-0.333556503067224	139.9347254574
3.305	-0.359592810420724	137.893787043144	-25.7824984990864	-139.481783378662	-25.7824984990864	-139.481783378662	-0.359592810420724	137.893787043144
3.31	-0.389790805798201	135.700756908069	-24.7008515560034	-141.953937262007	-24.7008515560029	-141.953937262007	-0.389790805798201	135.700756908069
3.315	-0.425162389357527	133.334024680457	-23.5820640795045	-144.623069317619	-23.5820640795044	-144.623069317619	-0.425162389357527	133.334024680457
3.32	-0.467053067959972	130.767629303258	-22.4238131102594	-147.518341452594	-22.4238131102597	-147.518341452594	-0.467053067959973	130.767629303258
3.325	-0.517279551037323	127.970161755245	-21.2237217858649	-150.67499435477	-21.2237217858648	-150.67499435477	-0.517279551037324	127.970161755245
3.33	-0.578334375774257	124.903366695024	-19.9794561776712	-154.1359109601	-19.9794561776713	-154.1359109601	-0.578334375774256	124.903366695024
3.335	-0.653694297929964	121.520380837592	-18.6888964723634	-157.953598020976	-18.6888964723636	-157.953598020976	-0.653694297929962	121.520380837592
3.34	-0.748290549617568	117.76356971897	-17.3504303878381	-162.192646555601	-17.350430387838	-162.192646555601	-0.748290549617568	117.76356971897
3.345	-0.869232202780873	113.562009612408	-15.9634454678421	-166.932657936061	-15.9634454678421	-166.932657936061	-0.869232202780871	113.562009612408
3.35	-1.02692264704124	108.82888665134	-14.5291390037993	-172.27141468743	-14.5291390037993	-172.27141468743	-1.02692264704124	108.82888665134
3.355	-1.23677276054523	103.459608499272	-13.0518175249448	-178.327580430698	-13.0518175249448	-178.327580430698	-1.23677276054523	103.459608499272
3.36	-1.52177250651096	97.332524884732	-11.5408993715549	174.758839715785	-11.5408993715549	174.758839715785	-1.52177250651096	97.3325248847321
3.365	-1.91615911443298	90.3162063628007	-10.013783009607	166.832017664732	-10.013783009607	166.832017664732	-1.91615911443298	90.3162063628006
3.37	-2.4701164491713	82.2903183092813	-8.49939375796527	157.738480526457	-8.49939375796527	157.738480526457	-2.4701164491713	82.2903183092813
3.375	-3.25450802811601	73.1896250122021	-7.0412072779725	147.36685748431	-7.0412072779725	147.36685748431	-3.25450802811601	73.1896250122021
3.38	-4.36292693676047	63.0764961915047	-5.69667658743572	135.713425674188	-5.69667658743572	135.713425674188	-4.36292693676047	63.0764961915047
3.385	-5.90717719851719	52.2263687699106	-4.52852153840349	122.95573392604	-4.52852153840349	122.95573392604	-5.90717719851719	52.2263687699105
3.39	-8.00586602730556	41.1764536783705	-3.58627292088209	109.480263369199	-3.58627292088208	109.480263369199	-8.00586602730556	41.1764536783705
3.395	-10.7770333862692	30.6880163668944	-2.88623756399237	95.8054189410738	-2.88623756399237	95.8054189410738	-10.7770333862692	30.6880163668943
3.4	-14.3568574136754	21.6603244728683	-2.40519287436321	82.4183536192889	-2.40519287436321	82.4183536192889	-14.3568574136754	21.6603244728681
3.405	-18.9703756024141	15.1481864572236	-2.09358261433941	69.6347796360461	-2.09358261433942	69.6347796360461	-18.9703756024141	15.1481864572237
3.41	-25.1288270215087	12.651459568401	-1.89683110433362	57.5658824248983	-1.89683110433361	57.5658824248983	-25.1288270215088	12.6514595684005
3.415	-34.6305263694189	16.816383480682	-1.77058824274112	46.1736433831155	-1.77058824274112	46.1736433831155	-34.6305263694189	16.816383480682
3.42	-49.291329351255	-158.333903090114	-1.68578532425925	35.3490013514024	-1.68578532425925	35.3490013514024	-49.2913293512553	-158.333903090114
3.425	-33.9038659446184	-137.060060570951	-1.62695437361299	24.9712985489055	-1.62695437361298	24.9712985489055	-33.9038659446184	-137.060060570951
3.43	-27.669771831562	-124.615606894564	-1.58805887817973	14.9408893179472	-1.58805887817974	14.9408893179472	-27.669771831562	-124.615606894564
3.435	-23.0575493066989	-119.792439066987	-1.56823365404757	5.19129033488039	-1.56823365404757	5.1912903348804	-23.0575493066989	-119.792439066986
3.44	-19.5101908454989	-120.03961828494	-1.56834204889528	-4.31138577893688	-1.56834204889528	-4.31138577893687	-19.510190845499	-120.039618284939
3.445	-16.7654362559732	-123.112357986819	-1.58859392010888	-13.5761110318551	-1.58859392010888	-13.5761110318551	-16.7654362559732	-123.112357986819
3.45	-14.6315198753047	-127.722284419699	-1.6272346370223	-22.5978108713916	-1.62723463702231	-22.5978108713916	-14.6315198753047	-127.722284419699
3.455	-12.9723457427251	-133.161690673449	-1.68019108221289	-31.3684032170286	-1.68019108221289	-31.3684032170286	-12.9723457427251	-133.161690673449
3.46	-11.6920040118129	-139.030510597798	-1.74144662757959	-39.8857841322579	-1.74144662757959	-39.8857841322579	-11.6920040118129	-139.030510597798
3.465	-10.7223587131705	-145.097196838592	-1.80384331453451	-48.1595627766813	-1.80384331453451	-48.1595627766813	-10.7223587131705	-145.097196838592
3.47	-10.0151166550948	-151.228443089937	-1.86001730782736	-56.2134347622664	-1.86001730782735	-56.2134347622664	-10.0151166550948	-151.228443089937
3.475	-9.53719651253785	-157.350568159187	-1.90325609330172	-64.0848691839619	-1.90325609330171	-64.0848691839619	-9.53719651253785	-157.350568159187
3.48	-9.26824257560121	-163.425367847895	-1.92817644383205	-71.823077249005	-1.92817644383205	-71.823077249005	-9.26824257560121	-163.425367847895
3.485	-9.19961643502773	-169.432294868464	-1.93121358895718	-79.486097983426	-1.93121358895718	-79.486097983426	-9.19961643502773	-169.432294868464
3.49	-9.33463650580453	-175.352169978308	-1.91096076612341	-87.1374849989308	-1.9109607661234	-87.1374849989308	-9.33463650580454	-175.352169978308
3.495	-9.69021177301497	178.852125694002	-1.86840398674167	-94.8427026878914	-1.86840398674167	-94.8427026878914	-9.69021177301497	178.852125694002
3.5	-10.3004628907159	173.265185870991	-1.80706959881394	-102.665064495547	-1.80706959881394	-102.665064495547	-10.3004628907159	173.265185870991
3.505	-11.2236688239892	168.074642015219	-1.73305350398997	-110.660943942191	-1.73305350398996	-110.660943942191	-11.2236688239892	168.074642015219
3.51	-12.5552298096074	163.695261302248	-1.65484302758813	-118.874126757617	-1.65484302758813	-118.874126757617	-12.5552298096074	163.695261302248
3.515	-14.4505234587828	161.097819831412	-1.58279566522459	-127.329615795383	-1.58279566522459	-127.329615795383	-14.4505234587828	161.097819831412
3.52	-17.1448190003559	162.856079480172	-1.52813865179828	-136.027948732712	-1.52813865179829	-136.027948732712	-17.1448190003559	162.856079480172
3.525	-20.6854674992894	176.721551933608	-1.50144426656763	-144.941933368225	-1.50144426656764	-144.941933368225	-20.6854674992895	176.721551933608
3.53	-22.3402321148122	-145.807421627033	-1.51073796962882	-154.018123674909	-1.51073796962883	-154.018123674909	-22.3402321148122	-145.807421627033
3.535	-19.1309611839907	-116.686085643709	-1.55965046072201	-163.184689574236	-1.55965046072201	-163.184689574236	-19.1309611839907	-116.686085643709
3.54	-15.6664387833115	-108.943752645832	-1.64617576605514	-172.365371242099	-1.64617576605515	-172.365371242099	-15.6664387833115	-108.943752645832
3.545	-13.1504582076156	-109.580122087523	-1.76249035582825	178.503200244174	-1.76249035582825	178.503200244174	-13.1504582076156	-109.580122087523
3.55	-11.3816138351863	-113.370480149073	-1.89593278632966	169.454805306498	-1.89593278632966	169.454805306498	-11.3816138351863	-113.370480149073
3.555	-10.1662948993991	-118.495992600927	-2.03086227017083	160.480692689289	-2.03086227017083	160.480692689289	-10.1662948993991	-118.495992600927
3.56	-9.39362810467623	-124.204741800634	-2.15097336034194	151.5211409049	-2.15097336034194	151.5211409049	-9.39362810467623	-124.204741800634
3.565	-9.01553257188322	-130.122682953241	-2.24183995540028	142.460055501236	-2.24183995540027	142.460055501236	-9.01553257188322	-130.122682953241
3.57	-9.03969340914443	-135.977702704588	-2.2939057476059	133.120581717247	-2.2939057476059	133.120581717247	-9.03969340914444	-135.977702704588
3.575	-9.54091345740322	-141.364411568248	-2.30668384747444	123.261838016379	-2.30668384747444	123.261838016379	-9.54091345740322	-141.364411568248
3.58	-10.6942405936206	-145.248398137606	-2.29537919954663	112.583230575694	-2.29537919954663	112.583230575694	-10.6942405936206	-145.248398137606
3.585	-12.8008502650503	-144.302474080507	-2.30083912913302	100.756242429024	-2.30083912913302	100.756242429024	-12.8008502650503	-144.302474080507
3.59	-15.6651268418646	-127.280310228011	-2.40056426475324	87.5230375123857	-2.40056426475323	87.5230375123857	-15.6651268418646	-127.280310228011
3.595	-14.7757551731482	-89.6337255748998	-2.70922919852119	72.8976771823823	-2.70922919852119	72.8976771823823	-14.7757551731482	-89.6337255748997
3.6	-10.2683318534857	-75.1253231177801	-3.34709205127512	57.3974492424464	-3.34709205127512	57.3974492424464	-10.2683318534857	-75.12532311778
3.605	-6.79234161902603	-78.042097000791	-4.37430174639452	42.0293473944764	-4.37430174639452	42.0293473944764	-6.79234161902602	-78.042097000791
3.61	-4.54897959157223	-85.8846141371536	-5.74712263886666	27.8555363726683	-5.74712263886665	27.8555363726683	-4.54897959157223	-85.8846141371536
3.615	-3.1376546745041	-94.4206776150433	-7.34924827665848	15.5059098827903	-7.34924827665848	15.5059098827904	-3.1376546745041	-94.4206776150433
3.62	-2.24712313503839	-102.275408846246	-9.05888974043196	5.08617318579292	-9.05888974043195	5.08617318579287	-2.24712313503839	-102.275408846246
3.625	-1.67437625389784	-109.115208928174	-10.7876459472315	-3.61194333188541	-10.7876459472315	-3.61194333188543	-1.67437625389784	-109.115208928174
3.63	-1.29538118540474	-114.978832076077	-12.4838646315727	-10.8945552044345	-12.4838646315727	-10.8945552044344	-1.29538118540474	-114.978832076077
3.635	-1.03636384034598	-120.010457261354	-14.1219937500047	-17.0525219695724	-14.1219937500048	-17.0525219695725	-1.03636384034598	-120.010457261354
3.64	-0.853482021987659	-124.362152054317	-15.6918728498489	-22.3250804772191	-15.691872849849	-22.325080477219	-0.85348202198766	-124.362152054317
3.645	-0.720298276651695	-128.164624684293	-17.1915385629975	-26.8980599407403	-17.1915385629975	-26.8980599407403	-0.720298276651695	-128.164624684293
3.65	-0.620508282059507	-131.522706286556	-18.6230629637258	-30.9129153264658	-18.6230629637258	-30.9129153264658	-0.620508282059508	-131.522706286556
3.655	-0.543795140942327	-134.518456637001	-19.990309699641	-34.4770412882163	-19.990309699641	-34.4770412882163	-0.543795140942327	-134.518456637001
3.66	-0.483456082138232	-137.215779565468	-21.2977734757751	-37.6724631497828	-21.2977734757751	-37.6724631497829	-0.483456082138232	-137.215779565468
